
**** 01/16/25 01:28:57 *** PSpice 24.1.0 (4 September 2024) *** ID# 0 ********

 ** Profile: "SCHEMATIC1-bias"  [ C:\Users\emiba\OneDrive\Desktop\P1_B_N1\proiect-sim-pspicefiles\schematic1\bias.sim ] 


 ****     CIRCUIT DESCRIPTION


******************************************************************************




** Creating circuit file "bias.cir" 
** WARNING: THIS AUTOMATICALLY GENERATED FILE MAY BE OVERWRITTEN BY SUBSEQUENT SIMULATIONS

*Libraries: 
* Profile Libraries :
* Local Libraries :
.LIB "../../../lib_modelepspice_anexa_1_a/modele_a1_lib/bc856b.lib" 
.LIB "../../../lib_modelepspice_anexa_1_a/modele_a1_lib/bc846b.lib" 
.LIB "../../../proiect-sim-pspicefiles/schematic1/test/1n4148.lib" 
* From [PSPICE NETLIST] section of C:\Users\emiba\AppData\Roaming\SPB_16.6\cdssetup\OrCAD_PSpice\24.1.0\PSpice.ini file:
.lib "nom.lib" 

*Analysis directives: 
.TRAN  0 10ms 0 1u 
.OPTIONS ADVCONV
.PROBE64 V(alias(*)) I(alias(*)) W(alias(*)) D(alias(*)) NOISE(alias(*)) 
.INC "..\SCHEMATIC1.net" 



**** INCLUDING SCHEMATIC1.net ****
* source PROIECT-SIM
R_R6         N115986 VIN  1k TC=0,0 
R_R8         0 N115996  10k TC=0,0 
X_D4         N115980 N116618 LED PARAMS: IS=2.6404e-027 RS=2  BV=5 IBV=10e-6   
+       
R_R21         N115996 N116600  10 TC=0,0 
R_R20         N115652 N115486  82 TC=0,0 
Q_Q14         N116042 N115996 N115864 QBC856B 
Q_Q9         N116038 N116042 N115980 QBC846B 
R_R11         N116618 N115980  330 TC=0,0 
Q_Q18         N115768 N115658 N115486 QBC856B 
C_C1         N116038 N115868  47p  TC=0,0 
R_R14         N116694 N116688  10k TC=0,0 
R_R15         N116600 N116590  10 TC=0,0 
R_R17         N115868 N115996  1k TC=0,0 
Q_Q8         N115868 N116038 N115980 QBC846B 
R_R2         N115666 N115486  1k TC=0,0 
R_R1         N115658 N115486  51 TC=0,0 
Q_Q16         N115868 N115768 N115658 QBC856B 
X_D5         N115662 N115486 LED PARAMS: IS=2.6404e-027 RS=2  BV=5 IBV=10e-6   
+       
R_R5         N116134 N115808  510 TC=0,0 
R_R12         N115662 N115486  330 TC=0,0 
Q_Q17         N115980 N116342 N115808 QBC856B 
R_R4         N115980 N115768  22k TC=0,0 
Q_Q10         N116042 N116042 N115980 QBC846B 
Q_Q12         N116590 N116694 0 QBC846B 
R_R23         0 VOUT  22 TC=0,0 
R_R9         N115980 N116342  1k TC=0,0 
Q_Q2         N115486 N115666 N115808 QBC846B 
Q_Q13         N116038 N115986 N115864 QBC856B 
R_R22         VOUT N116134  68 TC=0,0 
R_R18         N1156781 N115652  220 TC=0,0 
Q_Q15         N115864 N115768 N1156781 QBC856B 
V_V1         N116688 0 1
V_V2         0 N116618 11
V_V3         N115662 0 11
V_V4         VIN 0  
+SIN 0 10m 1k 0 0 0
X_U5         N115666 N115868 1N4148 
X_U6         N115868 N116342 1N4148 

**** RESUMING bias.cir ****
.END

**** 01/16/25 01:28:57 *** PSpice 24.1.0 (4 September 2024) *** ID# 0 ********

 ** Profile: "SCHEMATIC1-bias"  [ C:\Users\emiba\OneDrive\Desktop\P1_B_N1\proiect-sim-pspicefiles\schematic1\bias.sim ] 


 ****     Diode MODEL PARAMETERS


******************************************************************************




               X_D4.model201   X_D5.model201   X_U5.1N4148     X_U6.1N4148     
          IS    2.640400E-27    2.640400E-27    4.352000E-09    4.352000E-09 
           N    2               2               1.906           1.906        
          BV    5               5             110             110            
         IBV   10.000000E-06   10.000000E-06  100.000000E-06  100.000000E-06 
          RS    2               2                .6458           .6458       
          TT                                    3.480000E-09    3.480000E-09 
         CJO                                  704.800000E-15  704.800000E-15 
          VJ                                     .869            .869        
           M                                     .03             .03         


**** 01/16/25 01:28:57 *** PSpice 24.1.0 (4 September 2024) *** ID# 0 ********

 ** Profile: "SCHEMATIC1-bias"  [ C:\Users\emiba\OneDrive\Desktop\P1_B_N1\proiect-sim-pspicefiles\schematic1\bias.sim ] 


 ****     BJT MODEL PARAMETERS


******************************************************************************




               QBC856B         QBC846B         
               PNP             NPN             
       LEVEL    1               1            
          IS   20.140000E-15   18.220000E-15 
          BF  315.3           324.4          
          NF     .9974           .9932       
         VAF   39.15           82            
         IKF     .079            .109        
         ISE    6.578000E-15  289.400000E-18 
          NE    1.45            1.4          
          BR    8.68            8.29         
          NR     .9952           .9931       
         VAR    9.5            17.9          
         IKR     .09             .09         
         ISC   16.330000E-15    9.982000E-12 
          NC    1.15            1.763        
         ISS    0               0            
          RB   10              10            
         RBM    5.000000E-06    5            
         IRB    5.000000E-06    5.000000E-06 
          RE     .663            .649        
          RC     .718            .7014       
         CJE   11.350000E-12   12.440000E-12 
         VJE     .7071           .7579       
         MJE     .3808           .3656       
         CJC    6.395000E-12    3.347000E-12 
         VJC     .4951           .5463       
         MJC     .44             .391        
        XCJC     .6288           .6193       
         CJS    0               0            
         VJS     .75             .75         
         MJS     .333            .333        
          FC     .9059           .979        
          TF  654.600000E-12  490.800000E-12 
         XTF    5.387           9.51         
         VTF    6.245           2.927        
         ITF     .2108           .3131       
          TR   55.000000E-09   90.000000E-09 
          KF    0               0            
          AF    1               1            
          CN    2.2             2.42         
           D     .52             .87         


**** 01/16/25 01:28:57 *** PSpice 24.1.0 (4 September 2024) *** ID# 0 ********

 ** Profile: "SCHEMATIC1-bias"  [ C:\Users\emiba\OneDrive\Desktop\P1_B_N1\proiect-sim-pspicefiles\schematic1\bias.sim ] 


 ****     INITIAL TRANSIENT SOLUTION       TEMPERATURE =   27.000 DEG C


******************************************************************************



 NODE   VOLTAGE     NODE   VOLTAGE     NODE   VOLTAGE     NODE   VOLTAGE


(  VIN)    0.0000  ( VOUT) 263.5E-06  (N115486)    7.9711                       

(N115652)    7.7871                   (N115658)    7.3464                       

(N115662)   11.0000                   (N115666)     .7180                       

(N115768)    6.6372                   (N115808)     .0072                       

(N115864)     .6401                   (N115868)     .0074                       

(N115980)   -7.9712                   (N115986)     .0034                       

(N115996)     .0043                   (N116038)   -7.2621                       

(N116042)   -7.3318                   (N116134)     .0011                       

(N116342)    -.7033                   (N116590)     .0041                       

(N116600)     .0042                   (N116618)  -11.0000                       

(N116688)    1.0000                   (N116694)     .6062                       

(N1156781)    7.2934                  




    VOLTAGE SOURCE CURRENTS
    NAME         CURRENT

    V_V1        -3.938E-05
    V_V2        -3.515E-02
    V_V3        -3.518E-02
    V_V4         3.403E-06

    TOTAL POWER DISSIPATION   7.74E-01  WATTS



          JOB CONCLUDED

**** 01/16/25 01:28:57 *** PSpice 24.1.0 (4 September 2024) *** ID# 0 ********

 ** Profile: "SCHEMATIC1-bias"  [ C:\Users\emiba\OneDrive\Desktop\P1_B_N1\proiect-sim-pspicefiles\schematic1\bias.sim ] 


 ****     JOB STATISTICS SUMMARY


******************************************************************************



  Total job time (using Solver 1)   =        1.39
